T0E4C 4133:216 SEGGER J-Link V6.44h Log File (0000ms, 16062ms total)
T0E4C 4133:216 DLL Compiled: May  3 2019 17:37:09 (0000ms, 16062ms total)
T0E4C 4133:216 Logging started @ 2019-07-09 09:47 (0000ms, 16062ms total)
T0E4C 4133:216 JLINK_SetWarnOutHandler(...) (0000ms, 16062ms total)
T0E4C 4133:216 JLINK_OpenEx(...)
Firmware: J-Link LPC-Link 2 compiled May 30 2016 16:15:37
Hardware: V1.00
S/N: 611000000
TELNET listener socket opened on port 19021WEBSRV 
Starting webserver (0015ms, 16077ms total)
T0E4C 4133:216 WEBSRV Webserver running on local port 19080 (0015ms, 16077ms total)
T0E4C 4133:216   returns O.K. (0015ms, 16077ms total)
T0E4C 4133:231 JLINK_GetEmuCaps()  returns 0xB9FF7BBF (0000ms, 16077ms total)
T0E4C 4133:232 JLINK_TIF_GetAvailable(...) (0001ms, 16078ms total)
T0E4C 4133:233 JLINK_SetErrorOutHandler(...) (0000ms, 16078ms total)
T0E4C 4133:233 JLINK_ExecCommand("ProjectFile = "C:\Users\50405\Desktop\RIGHTNOW\¶þÎ¬Âë+Ë¢¿¨\PN7462AU-FW_v05.21.00_Full\PN7462AU_ex_phExHif\JLinkSettings.ini"", ...).   returns 0x00 (0001ms, 16079ms total)
T0E4C 4133:249 JLINK_ExecCommand("Device = PN7462AU-C3-00", ...). Device "PN7462AU" selected.  returns 0x00 (0011ms, 16090ms total)
T0E4C 4133:260 JLINK_ExecCommand("DisableConnectionTimeout", ...).   returns 0x01 (0000ms, 16090ms total)
T0E4C 4133:260 JLINK_GetHardwareVersion()  returns 0x2710 (0000ms, 16090ms total)
T0E4C 4133:260 JLINK_GetDLLVersion()  returns 64408 (0000ms, 16090ms total)
T0E4C 4133:260 JLINK_GetFirmwareString(...) (0000ms, 16090ms total)
T0E4C 4133:274 JLINK_GetDLLVersion()  returns 64408 (0000ms, 16090ms total)
T0E4C 4133:274 JLINK_GetCompileDateTime() (0000ms, 16090ms total)
T0E4C 4133:278 JLINK_GetFirmwareString(...) (0000ms, 16090ms total)
T0E4C 4133:282 JLINK_GetHardwareVersion()  returns 0x2710 (0000ms, 16090ms total)
T0E4C 4133:294 JLINK_TIF_Select(JLINKARM_TIF_SWD)  returns 0x00 (0004ms, 16094ms total)
T0E4C 4133:298 JLINK_SetSpeed(5000) (0001ms, 16095ms total)
T0E4C 4133:299 JLINK_GetId() >0x10B TIF>Found SW-DP with ID 0x0BB11477 >0x0D TIF> >0x28 TIF> >0x0D TIF> >0x28 TIF> >0x0D TIF> >0x28 TIF> >0x0D TIF> >0x28 TIF> >0x0D TIF> >0x21 TIF> >0x0D TIF> >0x28 TIF>Scanning AP map to find all available APs >0x0D TIF> >0x28 TIF> >0x0D TIF> >0x21 TIF> >0x0D TIF> >0x21 TIF> >0x0D TIF> >0x28 TIF> >0x0D TIF> >0x21 TIF> >0x0D TIF> >0x21 TIF>AP[1]: Stopped AP scan as end of AP map has been reachedAP[0]: AHB-AP (IDR: 0x04770021)Iterating through AP map to find AHB-AP to use
 >0x42 TIF> >0x28 TIF> >0x0D TIF> >0x28 TIF> >0x0D TIF> >0x21 TIF> >0x0D TIF> >0x21 TIF> >0x42 TIF> >0x28 TIF> >0x0D TIF> >0x28 TIF> >0x0D TIF> >0x28 TIF> >0x0D TIF> >0x21 TIF> >0x0D TIF> >0x21 TIF>AP[0]: Core foundAP[0]: AHB-AP ROM base: 0xE00FF000 >0x0D TIF> >0x28 TIF> >0x0D TIF> >0x28 TIF> >0x0D TIF> >0x28 TIF> >0x0D TIF> >0x21 TIF> >0x0D TIF> >0x21 TIF>CPUID register: 0x410CC200. Implementer code: 0x41 (ARM)Found Cortex-M0 r0p0, Little endian. -- Max. mem block: 0x00008C48
 -- CPU_ReadMem(4 bytes @ 0xE000EDF0) -- CPU_WriteMem(4 bytes @ 0xE000EDF0) -- CPU_ReadMem(4 bytes @ 0xE0002000)FPUnit: 4 code (BP) slots and 0 literal slots -- CPU_ReadMem(4 bytes @ 0xE000EDFC) -- CPU_WriteMem(4 bytes @ 0xE000EDFC) -- CPU_ReadMem(4 bytes @ 0xE0001000) -- CPU_WriteMem(4 bytes @ 0xE0001000)CoreSight components:ROMTbl[0] @ E00FF000 -- CPU_ReadMem(16 bytes @ 0xE00FF000) -- CPU_ReadMem(16 bytes @ 0xE000EFF0) -- CPU_ReadMem(16 bytes @ 0xE000EFE0)
ROMTbl[0][0]: E000E000, CID: B105E00D, PID: 000BB008 SCS -- CPU_ReadMem(16 bytes @ 0xE0001FF0) -- CPU_ReadMem(16 bytes @ 0xE0001FE0)ROMTbl[0][1]: E0001000, CID: B105E00D, PID: 000BB00A DWT -- CPU_ReadMem(16 bytes @ 0xE0002FF0) -- CPU_ReadMem(16 bytes @ 0xE0002FE0)ROMTbl[0][2]: E0002000, CID: B105E00D, PID: 000BB00B FPB >0x0D TIF> >0x21 TIF>  returns 0x0BB11477 (0231ms, 16326ms total)
T0E4C 4133:530 JLINK_GetDLLVersion()  returns 64408 (0000ms, 16326ms total)
T0E4C 4133:530 JLINK_CORE_GetFound()  returns 0x60000FF (0000ms, 16326ms total)
T0E4C 4133:530 JLINK_GetDebugInfo(0x100 = JLINKARM_ROM_TABLE_ADDR_INDEX) -- Value=0xE00FF000  returns 0x00 (0000ms, 16326ms total)
T0E4C 4133:533 JLINK_GetDebugInfo(0x100 = JLINKARM_ROM_TABLE_ADDR_INDEX) -- Value=0xE00FF000  returns 0x00 (0000ms, 16326ms total)
T0E4C 4133:533 JLINK_GetDebugInfo(0x101 = JLINKARM_DEBUG_INFO_ETM_ADDR_INDEX) -- Value=0x00000000  returns 0x00 (0000ms, 16326ms total)
T0E4C 4133:533 JLINK_ReadMemEx(0xE0041FF0, 0x0010 Bytes, ..., Flags = 0x02000004) -- CPU_ReadMem(16 bytes @ 0xE0041FF0) - Data: 00 00 00 00 00 00 00 00 00 00 00 00 00 00 00 00  returns 0x10 (0002ms, 16328ms total)
T0E4C 4133:535 JLINK_GetDebugInfo(0x102 = JLINKARM_DEBUG_INFO_MTB_ADDR_INDEX) -- Value=0x00000000  returns 0x00 (0000ms, 16328ms total)
T0E4C 4133:535 JLINK_GetDebugInfo(0x103 = JLINKARM_DEBUG_INFO_TPIU_ADDR_INDEX) -- Value=0x00000000  returns 0x00 (0000ms, 16328ms total)
T0E4C 4133:535 JLINK_ReadMemEx(0xE0040FF0, 0x0010 Bytes, ..., Flags = 0x02000004) -- CPU_ReadMem(16 bytes @ 0xE0040FF0) - Data: 00 00 00 00 00 00 00 00 00 00 00 00 00 00 00 00  returns 0x10 (0001ms, 16329ms total)
T0E4C 4133:536 JLINK_GetDebugInfo(0x104 = JLINKARM_DEBUG_INFO_ITM_ADDR_INDEX) -- Value=0xE0000000  returns 0x00 (0000ms, 16329ms total)
T0E4C 4133:536 JLINK_GetDebugInfo(0x105 = JLINKARM_DEBUG_INFO_DWT_ADDR_INDEX) -- Value=0xE0001000  returns 0x00 (0000ms, 16329ms total)
T0E4C 4133:536 JLINK_GetDebugInfo(0x106 = JLINKARM_DEBUG_INFO_FPB_ADDR_INDEX) -- Value=0xE0002000  returns 0x00 (0000ms, 16329ms total)
T0E4C 4133:536 JLINK_GetDebugInfo(0x107 = JLINKARM_DEBUG_INFO_NVIC_ADDR_INDEX) -- Value=0xE000E000  returns 0x00 (0000ms, 16329ms total)
T0E4C 4133:536 JLINK_GetDebugInfo(0x10C = JLINKARM_DEBUG_INFO_DBG_ADDR_INDEX) -- Value=0xE000EDF0  returns 0x00 (0000ms, 16329ms total)
T0E4C 4133:536 JLINK_GetDebugInfo(0x01 = Unknown) -- Value=0x00000000  returns 0x00 (0000ms, 16329ms total)
T0E4C 4133:536 JLINK_ReadMemU32(0xE000ED00, 0x0001 Items, ...) -- CPU_ReadMem(4 bytes @ 0xE000ED00) - Data: 00 C2 0C 41  returns 1 (0001ms, 16330ms total)
T0E4C 4133:537 JLINK_GetDebugInfo(0x10F = JLINKARM_DEBUG_INFO_HAS_CORTEX_M_SECURITY_EXT_INDEX) -- Value=0x00000000  returns 0x00 (0000ms, 16330ms total)
T0E4C 4133:537 JLINK_SetResetType(JLINKARM_CM3_RESET_TYPE_NORMAL)  returns JLINKARM_CM3_RESET_TYPE_NORMAL (0000ms, 16330ms total)
T0E4C 4133:537 JLINK_Reset()NXP PN7 reset: Halting CPU before performing reset...NXP PN7 reset: Halted CPU before reset. -- CPU_ReadMem(4 bytes @ 0xE000EDFC) -- CPU_WriteMem(4 bytes @ 0xE000EDFC) -- CPU_WriteMem(4 bytes @ 0xE0002000) -- CPU_ReadMem(4 bytes @ 0x00203004) -- CPU_ReadMem(4 bytes @ 0xE0002008) -- CPU_WriteMem(4 bytes @ 0xE0002008) -- CPU_WriteMem(4 bytes @ 0xE000ED0C) -- CPU_WriteMem(4 bytes @ 0xE0002008) -- CPU_WriteMem(4 bytes @ 0xE0002000) -- CPU_ReadMem(4 bytes @ 0xE000EDFC)
 -- CPU_ReadMem(4 bytes @ 0xE0001000) -- CPU_WriteMem(4 bytes @ 0xE0001000) (0133ms, 16463ms total)
T0E4C 4133:670 JLINK_Halt()  returns 0x00 (0000ms, 16463ms total)
T0E4C 4133:670 JLINK_ReadMemU32(0xE000EDF0, 0x0001 Items, ...) -- CPU_ReadMem(4 bytes @ 0xE000EDF0) - Data: 03 00 03 00  returns 1 (0000ms, 16463ms total)
T0E4C 4133:670 JLINK_WriteU32(0xE000EDF0, 0xA05F0003) -- CPU_WriteMem(4 bytes @ 0xE000EDF0)  returns 0 (0003ms, 16466ms total)
T0E4C 4133:673 JLINK_WriteU32(0xE000EDFC, 0x01000000) -- CPU_WriteMem(4 bytes @ 0xE000EDFC)  returns 0 (0001ms, 16467ms total)
T0E4C 4133:685 JLINK_GetHWStatus(...)  returns 0x00 (0001ms, 16468ms total)
T0E4C 4133:695 JLINK_GetNumBPUnits(Type = 0xFFFFFF00)  returns 0x04 (0000ms, 16468ms total)
T0E4C 4133:695 JLINK_GetNumBPUnits(Type = 0xF0)  returns 0x2000 (0000ms, 16468ms total)
T0E4C 4133:695 JLINK_GetNumWPUnits()  returns 0x02 (0000ms, 16468ms total)
T0E4C 4133:706 JLINK_GetSpeed()  returns 0xFA0 (0000ms, 16468ms total)
T0E4C 4133:712 JLINK_ReadMemU32(0xE000E004, 0x0001 Items, ...) -- CPU_ReadMem(4 bytes @ 0xE000E004) - Data: 00 00 00 00  returns 1 (0002ms, 16470ms total)
T0E4C 4133:714 JLINK_Halt()  returns 0x00 (0000ms, 16470ms total)
T0E4C 4133:714 JLINK_IsHalted()  returns TRUE (0000ms, 16470ms total)
T0E4C 4133:716 JLINK_WriteMem(0x00100020, 0x04C8 Bytes, ...) - Data: 00 BE 0A E0 0D 78 2D 06 68 40 08 24 40 00 00 D3 ... -- Need to split memory access -- #0: 0x00100020, 0x00000000 bytes -- CPU_WriteMem(992 bytes @ 0x00100020) -- #1: 0x00100400, 0x00000000 bytes -- CPU_WriteMem(232 bytes @ 0x00100400)  returns 0x4C8 (0010ms, 16480ms total)
T0E4C 4133:726 JLINK_WriteReg(R0, 0x00203000)  returns 0x00 (0000ms, 16480ms total)
T0E4C 4133:726 JLINK_WriteReg(R1, 0x00B71B00)  returns 0x00 (0000ms, 16480ms total)
T0E4C 4133:726 JLINK_WriteReg(R2, 0x00000001)  returns 0x00 (0000ms, 16480ms total)
T0E4C 4133:726 JLINK_WriteReg(R3, 0x00000000)  returns 0x00 (0000ms, 16480ms total)
T0E4C 4133:726 JLINK_WriteReg(R4, 0x00000000)  returns 0x00 (0000ms, 16480ms total)
T0E4C 4133:726 JLINK_WriteReg(R5, 0x00000000)  returns 0x00 (0000ms, 16480ms total)
T0E4C 4133:726 JLINK_WriteReg(R6, 0x00000000)  returns 0x00 (0000ms, 16480ms total)
T0E4C 4133:726 JLINK_WriteReg(R7, 0x00000000)  returns 0x00 (0000ms, 16480ms total)
T0E4C 4133:726 JLINK_WriteReg(R8, 0x00000000)  returns 0x00 (0000ms, 16480ms total)
T0E4C 4133:726 JLINK_WriteReg(R9, 0x001004E4)  returns 0x00 (0000ms, 16480ms total)
T0E4C 4133:726 JLINK_WriteReg(R10, 0x00000000)  returns 0x00 (0000ms, 16480ms total)
T0E4C 4133:726 JLINK_WriteReg(R11, 0x00000000)  returns 0x00 (0000ms, 16480ms total)
T0E4C 4133:726 JLINK_WriteReg(R12, 0x00000000)  returns 0x00 (0000ms, 16480ms total)
T0E4C 4133:726 JLINK_WriteReg(R13 (SP), 0x00102F00)  returns 0x00 (0000ms, 16480ms total)
T0E4C 4133:726 JLINK_WriteReg(R14, 0x00100021)  returns 0x00 (0000ms, 16480ms total)
T0E4C 4133:726 JLINK_WriteReg(R15 (PC), 0x00100090)  returns 0x00 (0000ms, 16480ms total)
T0E4C 4133:726 JLINK_WriteReg(XPSR, 0x01000000)  returns 0x00 (0000ms, 16480ms total)
T0E4C 4133:726 JLINK_WriteReg(MSP, 0x00102F00)  returns 0x00 (0000ms, 16480ms total)
T0E4C 4133:726 JLINK_WriteReg(PSP, 0x00102F00)  returns 0x00 (0000ms, 16480ms total)
T0E4C 4133:726 JLINK_WriteReg(CFBP, 0x00000000)  returns 0x00 (0000ms, 16480ms total)
T0E4C 4133:726 JLINK_SetBPEx(Addr = 0x00100020, Type = 0xFFFFFFF2)  returns 0x00000001 (0000ms, 16480ms total)
T0E4C 4133:726 JLINK_Go() -- CPU_WriteMem(4 bytes @ 0xE0002000) -- CPU_ReadMem(4 bytes @ 0xE0001000) -- CPU_WriteMem(4 bytes @ 0xE0001000) -- CPU_WriteMem(4 bytes @ 0xE0002008) -- CPU_WriteMem(4 bytes @ 0xE000200C) -- CPU_WriteMem(4 bytes @ 0xE0002010) -- CPU_WriteMem(4 bytes @ 0xE0002014) -- CPU_WriteMem(4 bytes @ 0xE0001004) (0015ms, 16495ms total)
T0E4C 4133:741 JLINK_IsHalted()  returns TRUE (0005ms, 16500ms total)
T0E4C 4133:746 JLINK_ReadReg(R15 (PC))  returns 0x00100020 (0000ms, 16495ms total)
T0E4C 4133:746 JLINK_ClrBPEx(BPHandle = 0x00000001)  returns 0x00 (0000ms, 16495ms total)
T0E4C 4133:746 JLINK_ReadReg(R0)  returns 0x00000000 (0000ms, 16495ms total)
T0E4C 4133:746 JLINK_WriteReg(R0, 0x00203000)  returns 0x00 (0000ms, 16495ms total)
T0E4C 4133:746 JLINK_WriteReg(R1, 0x00000800)  returns 0x00 (0000ms, 16495ms total)
T0E4C 4133:746 JLINK_WriteReg(R2, 0x000000FF)  returns 0x00 (0000ms, 16495ms total)
T0E4C 4133:746 JLINK_WriteReg(R3, 0x00000000)  returns 0x00 (0000ms, 16495ms total)
T0E4C 4133:746 JLINK_WriteReg(R4, 0x00000000)  returns 0x00 (0000ms, 16495ms total)
T0E4C 4133:746 JLINK_WriteReg(R5, 0x00000000)  returns 0x00 (0000ms, 16495ms total)
T0E4C 4133:746 JLINK_WriteReg(R6, 0x00000000)  returns 0x00 (0000ms, 16495ms total)
T0E4C 4133:746 JLINK_WriteReg(R7, 0x00000000)  returns 0x00 (0000ms, 16495ms total)
T0E4C 4133:746 JLINK_WriteReg(R8, 0x00000000)  returns 0x00 (0000ms, 16495ms total)
T0E4C 4133:746 JLINK_WriteReg(R9, 0x001004E4)  returns 0x00 (0000ms, 16495ms total)
T0E4C 4133:746 JLINK_WriteReg(R10, 0x00000000)  returns 0x00 (0000ms, 16495ms total)
T0E4C 4133:746 JLINK_WriteReg(R11, 0x00000000)  returns 0x00 (0000ms, 16495ms total)
T0E4C 4133:746 JLINK_WriteReg(R12, 0x00000000)  returns 0x00 (0000ms, 16495ms total)
T0E4C 4133:746 JLINK_WriteReg(R13 (SP), 0x00102F00)  returns 0x00 (0000ms, 16495ms total)
T0E4C 4133:746 JLINK_WriteReg(R14, 0x00100021)  returns 0x00 (0000ms, 16495ms total)
T0E4C 4133:746 JLINK_WriteReg(R15 (PC), 0x00100040)  returns 0x00 (0000ms, 16495ms total)
T0E4C 4133:746 JLINK_WriteReg(XPSR, 0x01000000)  returns 0x00 (0000ms, 16495ms total)
T0E4C 4133:746 JLINK_WriteReg(MSP, 0x00102F00)  returns 0x00 (0000ms, 16495ms total)
T0E4C 4133:746 JLINK_WriteReg(PSP, 0x00102F00)  returns 0x00 (0000ms, 16495ms total)
T0E4C 4133:746 JLINK_WriteReg(CFBP, 0x00000000)  returns 0x00 (0000ms, 16495ms total)
T0E4C 4133:746 JLINK_SetBPEx(Addr = 0x00100020, Type = 0xFFFFFFF2)  returns 0x00000002 (0000ms, 16495ms total)
T0E4C 4133:746 JLINK_Go() -- CPU_WriteMem(4 bytes @ 0xE0002000) -- CPU_ReadMem(4 bytes @ 0xE0001000) -- CPU_WriteMem(4 bytes @ 0xE0001000) (0011ms, 16506ms total)
T0E4C 4133:757 JLINK_IsHalted()  returns TRUE (0004ms, 16510ms total)
T0E4C 4133:761 JLINK_ReadReg(R15 (PC))  returns 0x00100020 (0000ms, 16506ms total)
T0E4C 4133:761 JLINK_ClrBPEx(BPHandle = 0x00000002)  returns 0x00 (0000ms, 16506ms total)
T0E4C 4133:761 JLINK_ReadReg(R0)  returns 0x00000001 (0000ms, 16506ms total)
T0E4C 4133:761 JLINK_WriteReg(R0, 0x00203000)  returns 0x00 (0000ms, 16506ms total)
T0E4C 4133:761 JLINK_WriteReg(R1, 0x00000800)  returns 0x00 (0000ms, 16506ms total)
T0E4C 4133:761 JLINK_WriteReg(R2, 0x000000FF)  returns 0x00 (0000ms, 16506ms total)
T0E4C 4133:761 JLINK_WriteReg(R3, 0x00000000)  returns 0x00 (0000ms, 16506ms total)
T0E4C 4133:761 JLINK_WriteReg(R4, 0x00000000)  returns 0x00 (0000ms, 16506ms total)
T0E4C 4133:761 JLINK_WriteReg(R5, 0x00000000)  returns 0x00 (0000ms, 16506ms total)
T0E4C 4133:761 JLINK_WriteReg(R6, 0x00000000)  returns 0x00 (0000ms, 16506ms total)
T0E4C 4133:761 JLINK_WriteReg(R7, 0x00000000)  returns 0x00 (0000ms, 16506ms total)
T0E4C 4133:761 JLINK_WriteReg(R8, 0x00000000)  returns 0x00 (0000ms, 16506ms total)
T0E4C 4133:761 JLINK_WriteReg(R9, 0x001004E4)  returns 0x00 (0000ms, 16506ms total)
T0E4C 4133:761 JLINK_WriteReg(R10, 0x00000000)  returns 0x00 (0000ms, 16506ms total)
T0E4C 4133:761 JLINK_WriteReg(R11, 0x00000000)  returns 0x00 (0000ms, 16506ms total)
T0E4C 4133:761 JLINK_WriteReg(R12, 0x00000000)  returns 0x00 (0000ms, 16506ms total)
T0E4C 4133:761 JLINK_WriteReg(R13 (SP), 0x00102F00)  returns 0x00 (0000ms, 16506ms total)
T0E4C 4133:761 JLINK_WriteReg(R14, 0x00100021)  returns 0x00 (0000ms, 16506ms total)
T0E4C 4133:761 JLINK_WriteReg(R15 (PC), 0x001000A4)  returns 0x00 (0000ms, 16506ms total)
T0E4C 4133:761 JLINK_WriteReg(XPSR, 0x01000000)  returns 0x00 (0000ms, 16506ms total)
T0E4C 4133:761 JLINK_WriteReg(MSP, 0x00102F00)  returns 0x00 (0000ms, 16506ms total)
T0E4C 4133:761 JLINK_WriteReg(PSP, 0x00102F00)  returns 0x00 (0000ms, 16506ms total)
T0E4C 4133:761 JLINK_WriteReg(CFBP, 0x00000000)  returns 0x00 (0000ms, 16506ms total)
T0E4C 4133:761 JLINK_SetBPEx(Addr = 0x00100020, Type = 0xFFFFFFF2)  returns 0x00000003 (0000ms, 16506ms total)
T0E4C 4133:761 JLINK_Go() -- CPU_WriteMem(4 bytes @ 0xE0002000) -- CPU_ReadMem(4 bytes @ 0xE0001000) -- CPU_WriteMem(4 bytes @ 0xE0001000) (0010ms, 16516ms total)
T0E4C 4133:772 JLINK_IsHalted()  returns TRUE (0004ms, 16521ms total)
T0E4C 4133:776 JLINK_ReadReg(R15 (PC))  returns 0x00100020 (0000ms, 16517ms total)
T0E4C 4133:776 JLINK_ClrBPEx(BPHandle = 0x00000003)  returns 0x00 (0000ms, 16517ms total)
T0E4C 4133:776 JLINK_ReadReg(R0)  returns 0x00000000 (0000ms, 16517ms total)
T0E4C 4133:777 JLINK_WriteReg(R0, 0x00203800)  returns 0x00 (0000ms, 16517ms total)
T0E4C 4133:777 JLINK_WriteReg(R1, 0x00000800)  returns 0x00 (0000ms, 16517ms total)
T0E4C 4133:777 JLINK_WriteReg(R2, 0x000000FF)  returns 0x00 (0000ms, 16517ms total)
T0E4C 4133:777 JLINK_WriteReg(R3, 0x00000000)  returns 0x00 (0000ms, 16517ms total)
T0E4C 4133:777 JLINK_WriteReg(R4, 0x00000000)  returns 0x00 (0000ms, 16517ms total)
T0E4C 4133:777 JLINK_WriteReg(R5, 0x00000000)  returns 0x00 (0000ms, 16517ms total)
T0E4C 4133:777 JLINK_WriteReg(R6, 0x00000000)  returns 0x00 (0000ms, 16517ms total)
T0E4C 4133:777 JLINK_WriteReg(R7, 0x00000000)  returns 0x00 (0000ms, 16517ms total)
T0E4C 4133:777 JLINK_WriteReg(R8, 0x00000000)  returns 0x00 (0000ms, 16517ms total)
T0E4C 4133:777 JLINK_WriteReg(R9, 0x001004E4)  returns 0x00 (0000ms, 16517ms total)
T0E4C 4133:777 JLINK_WriteReg(R10, 0x00000000)  returns 0x00 (0000ms, 16517ms total)
T0E4C 4133:777 JLINK_WriteReg(R11, 0x00000000)  returns 0x00 (0000ms, 16517ms total)
T0E4C 4133:777 JLINK_WriteReg(R12, 0x00000000)  returns 0x00 (0000ms, 16517ms total)
T0E4C 4133:777 JLINK_WriteReg(R13 (SP), 0x00102F00)  returns 0x00 (0000ms, 16517ms total)
T0E4C 4133:777 JLINK_WriteReg(R14, 0x00100021)  returns 0x00 (0000ms, 16517ms total)
T0E4C 4133:777 JLINK_WriteReg(R15 (PC), 0x00100040)  returns 0x00 (0000ms, 16517ms total)
T0E4C 4133:777 JLINK_WriteReg(XPSR, 0x01000000)  returns 0x00 (0000ms, 16517ms total)
T0E4C 4133:777 JLINK_WriteReg(MSP, 0x00102F00)  returns 0x00 (0000ms, 16517ms total)
T0E4C 4133:777 JLINK_WriteReg(PSP, 0x00102F00)  returns 0x00 (0000ms, 16517ms total)
T0E4C 4133:777 JLINK_WriteReg(CFBP, 0x00000000)  returns 0x00 (0000ms, 16517ms total)
T0E4C 4133:777 JLINK_SetBPEx(Addr = 0x00100020, Type = 0xFFFFFFF2)  returns 0x00000004 (0000ms, 16517ms total)
T0E4C 4133:777 JLINK_Go() -- CPU_WriteMem(4 bytes @ 0xE0002000) -- CPU_ReadMem(4 bytes @ 0xE0001000) -- CPU_WriteMem(4 bytes @ 0xE0001000) (0010ms, 16527ms total)
T0E4C 4133:787 JLINK_IsHalted()  returns TRUE (0005ms, 16532ms total)
T0E4C 4133:792 JLINK_ReadReg(R15 (PC))  returns 0x00100020 (0000ms, 16527ms total)
T0E4C 4133:792 JLINK_ClrBPEx(BPHandle = 0x00000004)  returns 0x00 (0000ms, 16527ms total)
T0E4C 4133:792 JLINK_ReadReg(R0)  returns 0x00000001 (0000ms, 16527ms total)
T0E4C 4133:792 JLINK_WriteReg(R0, 0x00203800)  returns 0x00 (0000ms, 16527ms total)
T0E4C 4133:792 JLINK_WriteReg(R1, 0x00000800)  returns 0x00 (0000ms, 16527ms total)
T0E4C 4133:792 JLINK_WriteReg(R2, 0x000000FF)  returns 0x00 (0000ms, 16527ms total)
T0E4C 4133:792 JLINK_WriteReg(R3, 0x00000000)  returns 0x00 (0000ms, 16527ms total)
T0E4C 4133:792 JLINK_WriteReg(R4, 0x00000000)  returns 0x00 (0000ms, 16527ms total)
T0E4C 4133:792 JLINK_WriteReg(R5, 0x00000000)  returns 0x00 (0000ms, 16527ms total)
T0E4C 4133:792 JLINK_WriteReg(R6, 0x00000000)  returns 0x00 (0000ms, 16527ms total)
T0E4C 4133:792 JLINK_WriteReg(R7, 0x00000000)  returns 0x00 (0000ms, 16527ms total)
T0E4C 4133:792 JLINK_WriteReg(R8, 0x00000000)  returns 0x00 (0000ms, 16527ms total)
T0E4C 4133:792 JLINK_WriteReg(R9, 0x001004E4)  returns 0x00 (0000ms, 16527ms total)
T0E4C 4133:792 JLINK_WriteReg(R10, 0x00000000)  returns 0x00 (0000ms, 16527ms total)
T0E4C 4133:792 JLINK_WriteReg(R11, 0x00000000)  returns 0x00 (0000ms, 16527ms total)
T0E4C 4133:792 JLINK_WriteReg(R12, 0x00000000)  returns 0x00 (0000ms, 16527ms total)
T0E4C 4133:792 JLINK_WriteReg(R13 (SP), 0x00102F00)  returns 0x00 (0000ms, 16527ms total)
T0E4C 4133:792 JLINK_WriteReg(R14, 0x00100021)  returns 0x00 (0000ms, 16527ms total)
T0E4C 4133:792 JLINK_WriteReg(R15 (PC), 0x001000A4)  returns 0x00 (0000ms, 16527ms total)
T0E4C 4133:792 JLINK_WriteReg(XPSR, 0x01000000)  returns 0x00 (0000ms, 16527ms total)
T0E4C 4133:792 JLINK_WriteReg(MSP, 0x00102F00)  returns 0x00 (0000ms, 16527ms total)
T0E4C 4133:792 JLINK_WriteReg(PSP, 0x00102F00)  returns 0x00 (0000ms, 16527ms total)
T0E4C 4133:792 JLINK_WriteReg(CFBP, 0x00000000)  returns 0x00 (0000ms, 16527ms total)
T0E4C 4133:792 JLINK_SetBPEx(Addr = 0x00100020, Type = 0xFFFFFFF2)  returns 0x00000005 (0000ms, 16527ms total)
T0E4C 4133:792 JLINK_Go() -- CPU_WriteMem(4 bytes @ 0xE0002000) -- CPU_ReadMem(4 bytes @ 0xE0001000) -- CPU_WriteMem(4 bytes @ 0xE0001000) (0011ms, 16538ms total)
T0E4C 4133:803 JLINK_IsHalted()  returns TRUE (0004ms, 16542ms total)
T0E4C 4133:807 JLINK_ReadReg(R15 (PC))  returns 0x00100020 (0000ms, 16538ms total)
T0E4C 4133:807 JLINK_ClrBPEx(BPHandle = 0x00000005)  returns 0x00 (0000ms, 16538ms total)
T0E4C 4133:807 JLINK_ReadReg(R0)  returns 0x00000000 (0000ms, 16538ms total)
T0E4C 4133:808 JLINK_WriteReg(R0, 0x00204000)  returns 0x00 (0000ms, 16538ms total)
T0E4C 4133:808 JLINK_WriteReg(R1, 0x00000800)  returns 0x00 (0000ms, 16538ms total)
T0E4C 4133:808 JLINK_WriteReg(R2, 0x000000FF)  returns 0x00 (0000ms, 16538ms total)
T0E4C 4133:808 JLINK_WriteReg(R3, 0x00000000)  returns 0x00 (0000ms, 16538ms total)
T0E4C 4133:808 JLINK_WriteReg(R4, 0x00000000)  returns 0x00 (0000ms, 16538ms total)
T0E4C 4133:808 JLINK_WriteReg(R5, 0x00000000)  returns 0x00 (0000ms, 16538ms total)
T0E4C 4133:808 JLINK_WriteReg(R6, 0x00000000)  returns 0x00 (0000ms, 16538ms total)
T0E4C 4133:808 JLINK_WriteReg(R7, 0x00000000)  returns 0x00 (0000ms, 16538ms total)
T0E4C 4133:808 JLINK_WriteReg(R8, 0x00000000)  returns 0x00 (0000ms, 16538ms total)
T0E4C 4133:808 JLINK_WriteReg(R9, 0x001004E4)  returns 0x00 (0000ms, 16538ms total)
T0E4C 4133:808 JLINK_WriteReg(R10, 0x00000000)  returns 0x00 (0000ms, 16538ms total)
T0E4C 4133:808 JLINK_WriteReg(R11, 0x00000000)  returns 0x00 (0000ms, 16538ms total)
T0E4C 4133:808 JLINK_WriteReg(R12, 0x00000000)  returns 0x00 (0000ms, 16538ms total)
T0E4C 4133:808 JLINK_WriteReg(R13 (SP), 0x00102F00)  returns 0x00 (0000ms, 16538ms total)
T0E4C 4133:808 JLINK_WriteReg(R14, 0x00100021)  returns 0x00 (0000ms, 16538ms total)
T0E4C 4133:808 JLINK_WriteReg(R15 (PC), 0x00100040)  returns 0x00 (0000ms, 16538ms total)
T0E4C 4133:808 JLINK_WriteReg(XPSR, 0x01000000)  returns 0x00 (0000ms, 16538ms total)
T0E4C 4133:808 JLINK_WriteReg(MSP, 0x00102F00)  returns 0x00 (0000ms, 16538ms total)
T0E4C 4133:808 JLINK_WriteReg(PSP, 0x00102F00)  returns 0x00 (0000ms, 16538ms total)
T0E4C 4133:808 JLINK_WriteReg(CFBP, 0x00000000)  returns 0x00 (0000ms, 16538ms total)
T0E4C 4133:808 JLINK_SetBPEx(Addr = 0x00100020, Type = 0xFFFFFFF2)  returns 0x00000006 (0000ms, 16538ms total)
T0E4C 4133:808 JLINK_Go() -- CPU_WriteMem(4 bytes @ 0xE0002000) -- CPU_ReadMem(4 bytes @ 0xE0001000) -- CPU_WriteMem(4 bytes @ 0xE0001000) (0010ms, 16548ms total)
T0E4C 4133:818 JLINK_IsHalted()  returns TRUE (0005ms, 16553ms total)
T0E4C 4133:823 JLINK_ReadReg(R15 (PC))  returns 0x00100020 (0000ms, 16548ms total)
T0E4C 4133:823 JLINK_ClrBPEx(BPHandle = 0x00000006)  returns 0x00 (0000ms, 16548ms total)
T0E4C 4133:823 JLINK_ReadReg(R0)  returns 0x00000001 (0000ms, 16548ms total)
T0E4C 4133:823 JLINK_WriteReg(R0, 0x00204000)  returns 0x00 (0000ms, 16548ms total)
T0E4C 4133:823 JLINK_WriteReg(R1, 0x00000800)  returns 0x00 (0000ms, 16548ms total)
T0E4C 4133:823 JLINK_WriteReg(R2, 0x000000FF)  returns 0x00 (0000ms, 16548ms total)
T0E4C 4133:823 JLINK_WriteReg(R3, 0x00000000)  returns 0x00 (0000ms, 16548ms total)
T0E4C 4133:823 JLINK_WriteReg(R4, 0x00000000)  returns 0x00 (0000ms, 16548ms total)
T0E4C 4133:823 JLINK_WriteReg(R5, 0x00000000)  returns 0x00 (0000ms, 16548ms total)
T0E4C 4133:823 JLINK_WriteReg(R6, 0x00000000)  returns 0x00 (0000ms, 16548ms total)
T0E4C 4133:823 JLINK_WriteReg(R7, 0x00000000)  returns 0x00 (0000ms, 16548ms total)
T0E4C 4133:823 JLINK_WriteReg(R8, 0x00000000)  returns 0x00 (0000ms, 16548ms total)
T0E4C 4133:823 JLINK_WriteReg(R9, 0x001004E4)  returns 0x00 (0000ms, 16548ms total)
T0E4C 4133:823 JLINK_WriteReg(R10, 0x00000000)  returns 0x00 (0000ms, 16548ms total)
T0E4C 4133:823 JLINK_WriteReg(R11, 0x00000000)  returns 0x00 (0000ms, 16548ms total)
T0E4C 4133:823 JLINK_WriteReg(R12, 0x00000000)  returns 0x00 (0000ms, 16548ms total)
T0E4C 4133:823 JLINK_WriteReg(R13 (SP), 0x00102F00)  returns 0x00 (0000ms, 16548ms total)
T0E4C 4133:823 JLINK_WriteReg(R14, 0x00100021)  returns 0x00 (0000ms, 16548ms total)
T0E4C 4133:823 JLINK_WriteReg(R15 (PC), 0x001000A4)  returns 0x00 (0000ms, 16548ms total)
T0E4C 4133:823 JLINK_WriteReg(XPSR, 0x01000000)  returns 0x00 (0000ms, 16548ms total)
T0E4C 4133:823 JLINK_WriteReg(MSP, 0x00102F00)  returns 0x00 (0000ms, 16548ms total)
T0E4C 4133:823 JLINK_WriteReg(PSP, 0x00102F00)  returns 0x00 (0000ms, 16548ms total)
T0E4C 4133:823 JLINK_WriteReg(CFBP, 0x00000000)  returns 0x00 (0000ms, 16548ms total)
T0E4C 4133:823 JLINK_SetBPEx(Addr = 0x00100020, Type = 0xFFFFFFF2)  returns 0x00000007 (0000ms, 16548ms total)
T0E4C 4133:823 JLINK_Go() -- CPU_WriteMem(4 bytes @ 0xE0002000) -- CPU_ReadMem(4 bytes @ 0xE0001000) -- CPU_WriteMem(4 bytes @ 0xE0001000) (0010ms, 16558ms total)
T0E4C 4133:833 JLINK_IsHalted()  returns TRUE (0005ms, 16563ms total)
T0E4C 4133:838 JLINK_ReadReg(R15 (PC))  returns 0x00100020 (0000ms, 16558ms total)
T0E4C 4133:838 JLINK_ClrBPEx(BPHandle = 0x00000007)  returns 0x00 (0000ms, 16558ms total)
T0E4C 4133:838 JLINK_ReadReg(R0)  returns 0x00000000 (0000ms, 16558ms total)
T0E4C 4133:839 JLINK_WriteReg(R0, 0x00204800)  returns 0x00 (0000ms, 16558ms total)
T0E4C 4133:839 JLINK_WriteReg(R1, 0x00000800)  returns 0x00 (0000ms, 16558ms total)
T0E4C 4133:839 JLINK_WriteReg(R2, 0x000000FF)  returns 0x00 (0000ms, 16558ms total)
T0E4C 4133:839 JLINK_WriteReg(R3, 0x00000000)  returns 0x00 (0000ms, 16558ms total)
T0E4C 4133:839 JLINK_WriteReg(R4, 0x00000000)  returns 0x00 (0000ms, 16558ms total)
T0E4C 4133:839 JLINK_WriteReg(R5, 0x00000000)  returns 0x00 (0000ms, 16558ms total)
T0E4C 4133:839 JLINK_WriteReg(R6, 0x00000000)  returns 0x00 (0000ms, 16558ms total)
T0E4C 4133:839 JLINK_WriteReg(R7, 0x00000000)  returns 0x00 (0000ms, 16558ms total)
T0E4C 4133:839 JLINK_WriteReg(R8, 0x00000000)  returns 0x00 (0000ms, 16558ms total)
T0E4C 4133:839 JLINK_WriteReg(R9, 0x001004E4)  returns 0x00 (0000ms, 16558ms total)
T0E4C 4133:839 JLINK_WriteReg(R10, 0x00000000)  returns 0x00 (0000ms, 16558ms total)
T0E4C 4133:839 JLINK_WriteReg(R11, 0x00000000)  returns 0x00 (0000ms, 16558ms total)
T0E4C 4133:839 JLINK_WriteReg(R12, 0x00000000)  returns 0x00 (0000ms, 16558ms total)
T0E4C 4133:839 JLINK_WriteReg(R13 (SP), 0x00102F00)  returns 0x00 (0000ms, 16558ms total)
T0E4C 4133:839 JLINK_WriteReg(R14, 0x00100021)  returns 0x00 (0000ms, 16558ms total)
T0E4C 4133:839 JLINK_WriteReg(R15 (PC), 0x00100040)  returns 0x00 (0000ms, 16558ms total)
T0E4C 4133:839 JLINK_WriteReg(XPSR, 0x01000000)  returns 0x00 (0000ms, 16558ms total)
T0E4C 4133:839 JLINK_WriteReg(MSP, 0x00102F00)  returns 0x00 (0000ms, 16558ms total)
T0E4C 4133:839 JLINK_WriteReg(PSP, 0x00102F00)  returns 0x00 (0000ms, 16558ms total)
T0E4C 4133:839 JLINK_WriteReg(CFBP, 0x00000000)  returns 0x00 (0000ms, 16558ms total)
T0E4C 4133:839 JLINK_SetBPEx(Addr = 0x00100020, Type = 0xFFFFFFF2)  returns 0x00000008 (0000ms, 16558ms total)
T0E4C 4133:839 JLINK_Go() -- CPU_WriteMem(4 bytes @ 0xE0002000) -- CPU_ReadMem(4 bytes @ 0xE0001000) -- CPU_WriteMem(4 bytes @ 0xE0001000) (0010ms, 16568ms total)
T0E4C 4133:849 JLINK_IsHalted()  returns TRUE (0005ms, 16573ms total)
T0E4C 4133:854 JLINK_ReadReg(R15 (PC))  returns 0x00100020 (0000ms, 16568ms total)
T0E4C 4133:854 JLINK_ClrBPEx(BPHandle = 0x00000008)  returns 0x00 (0000ms, 16568ms total)
T0E4C 4133:854 JLINK_ReadReg(R0)  returns 0x00000001 (0000ms, 16568ms total)
T0E4C 4133:854 JLINK_WriteReg(R0, 0x00204800)  returns 0x00 (0000ms, 16568ms total)
T0E4C 4133:854 JLINK_WriteReg(R1, 0x00000800)  returns 0x00 (0000ms, 16568ms total)
T0E4C 4133:854 JLINK_WriteReg(R2, 0x000000FF)  returns 0x00 (0000ms, 16568ms total)
T0E4C 4133:854 JLINK_WriteReg(R3, 0x00000000)  returns 0x00 (0000ms, 16568ms total)
T0E4C 4133:854 JLINK_WriteReg(R4, 0x00000000)  returns 0x00 (0000ms, 16568ms total)
T0E4C 4133:854 JLINK_WriteReg(R5, 0x00000000)  returns 0x00 (0000ms, 16568ms total)
T0E4C 4133:854 JLINK_WriteReg(R6, 0x00000000)  returns 0x00 (0000ms, 16568ms total)
T0E4C 4133:854 JLINK_WriteReg(R7, 0x00000000)  returns 0x00 (0000ms, 16568ms total)
T0E4C 4133:854 JLINK_WriteReg(R8, 0x00000000)  returns 0x00 (0000ms, 16568ms total)
T0E4C 4133:854 JLINK_WriteReg(R9, 0x001004E4)  returns 0x00 (0000ms, 16568ms total)
T0E4C 4133:854 JLINK_WriteReg(R10, 0x00000000)  returns 0x00 (0000ms, 16568ms total)
T0E4C 4133:854 JLINK_WriteReg(R11, 0x00000000)  returns 0x00 (0000ms, 16568ms total)
T0E4C 4133:854 JLINK_WriteReg(R12, 0x00000000)  returns 0x00 (0000ms, 16568ms total)
T0E4C 4133:854 JLINK_WriteReg(R13 (SP), 0x00102F00)  returns 0x00 (0000ms, 16568ms total)
T0E4C 4133:854 JLINK_WriteReg(R14, 0x00100021)  returns 0x00 (0000ms, 16568ms total)
T0E4C 4133:854 JLINK_WriteReg(R15 (PC), 0x001000A4)  returns 0x00 (0000ms, 16568ms total)
T0E4C 4133:854 JLINK_WriteReg(XPSR, 0x01000000)  returns 0x00 (0000ms, 16568ms total)
T0E4C 4133:854 JLINK_WriteReg(MSP, 0x00102F00)  returns 0x00 (0000ms, 16568ms total)
T0E4C 4133:854 JLINK_WriteReg(PSP, 0x00102F00)  returns 0x00 (0000ms, 16568ms total)
T0E4C 4133:854 JLINK_WriteReg(CFBP, 0x00000000)  returns 0x00 (0000ms, 16568ms total)
T0E4C 4133:854 JLINK_SetBPEx(Addr = 0x00100020, Type = 0xFFFFFFF2)  returns 0x00000009 (0001ms, 16569ms total)
T0E4C 4133:855 JLINK_Go() -- CPU_WriteMem(4 bytes @ 0xE0002000) -- CPU_ReadMem(4 bytes @ 0xE0001000) -- CPU_WriteMem(4 bytes @ 0xE0001000) (0009ms, 16578ms total)
T0E4C 4133:864 JLINK_IsHalted()  returns TRUE (0005ms, 16583ms total)
T0E4C 4133:869 JLINK_ReadReg(R15 (PC))  returns 0x00100020 (0000ms, 16578ms total)
T0E4C 4133:869 JLINK_ClrBPEx(BPHandle = 0x00000009)  returns 0x00 (0000ms, 16578ms total)
T0E4C 4133:869 JLINK_ReadReg(R0)  returns 0x00000000 (0000ms, 16578ms total)
T0E4C 4133:869 JLINK_WriteReg(R0, 0x00205000)  returns 0x00 (0000ms, 16578ms total)
T0E4C 4133:869 JLINK_WriteReg(R1, 0x00000800)  returns 0x00 (0000ms, 16578ms total)
T0E4C 4133:869 JLINK_WriteReg(R2, 0x000000FF)  returns 0x00 (0000ms, 16578ms total)
T0E4C 4133:869 JLINK_WriteReg(R3, 0x00000000)  returns 0x00 (0001ms, 16579ms total)
T0E4C 4133:870 JLINK_WriteReg(R4, 0x00000000)  returns 0x00 (0000ms, 16579ms total)
T0E4C 4133:870 JLINK_WriteReg(R5, 0x00000000)  returns 0x00 (0000ms, 16579ms total)
T0E4C 4133:870 JLINK_WriteReg(R6, 0x00000000)  returns 0x00 (0000ms, 16579ms total)
T0E4C 4133:870 JLINK_WriteReg(R7, 0x00000000)  returns 0x00 (0000ms, 16579ms total)
T0E4C 4133:870 JLINK_WriteReg(R8, 0x00000000)  returns 0x00 (0000ms, 16579ms total)
T0E4C 4133:870 JLINK_WriteReg(R9, 0x001004E4)  returns 0x00 (0000ms, 16579ms total)
T0E4C 4133:870 JLINK_WriteReg(R10, 0x00000000)  returns 0x00 (0000ms, 16579ms total)
T0E4C 4133:870 JLINK_WriteReg(R11, 0x00000000)  returns 0x00 (0000ms, 16579ms total)
T0E4C 4133:870 JLINK_WriteReg(R12, 0x00000000)  returns 0x00 (0000ms, 16579ms total)
T0E4C 4133:870 JLINK_WriteReg(R13 (SP), 0x00102F00)  returns 0x00 (0000ms, 16579ms total)
T0E4C 4133:870 JLINK_WriteReg(R14, 0x00100021)  returns 0x00 (0000ms, 16579ms total)
T0E4C 4133:870 JLINK_WriteReg(R15 (PC), 0x00100040)  returns 0x00 (0000ms, 16579ms total)
T0E4C 4133:870 JLINK_WriteReg(XPSR, 0x01000000)  returns 0x00 (0000ms, 16579ms total)
T0E4C 4133:870 JLINK_WriteReg(MSP, 0x00102F00)  returns 0x00 (0000ms, 16579ms total)
T0E4C 4133:870 JLINK_WriteReg(PSP, 0x00102F00)  returns 0x00 (0000ms, 16579ms total)
T0E4C 4133:870 JLINK_WriteReg(CFBP, 0x00000000)  returns 0x00 (0000ms, 16579ms total)
T0E4C 4133:870 JLINK_SetBPEx(Addr = 0x00100020, Type = 0xFFFFFFF2)  returns 0x0000000A (0000ms, 16579ms total)
T0E4C 4133:870 JLINK_Go() -- CPU_WriteMem(4 bytes @ 0xE0002000) -- CPU_ReadMem(4 bytes @ 0xE0001000) -- CPU_WriteMem(4 bytes @ 0xE0001000) (0011ms, 16590ms total)
T0E4C 4133:881 JLINK_IsHalted()  returns TRUE (0005ms, 16595ms total)
T0E4C 4133:886 JLINK_ReadReg(R15 (PC))  returns 0x00100020 (0000ms, 16590ms total)
T0E4C 4133:886 JLINK_ClrBPEx(BPHandle = 0x0000000A)  returns 0x00 (0000ms, 16590ms total)
T0E4C 4133:886 JLINK_ReadReg(R0)  returns 0x00000001 (0000ms, 16590ms total)
T0E4C 4133:886 JLINK_WriteReg(R0, 0x00205000)  returns 0x00 (0000ms, 16590ms total)
T0E4C 4133:886 JLINK_WriteReg(R1, 0x00000800)  returns 0x00 (0000ms, 16590ms total)
T0E4C 4133:886 JLINK_WriteReg(R2, 0x000000FF)  returns 0x00 (0000ms, 16590ms total)
T0E4C 4133:886 JLINK_WriteReg(R3, 0x00000000)  returns 0x00 (0000ms, 16590ms total)
T0E4C 4133:886 JLINK_WriteReg(R4, 0x00000000)  returns 0x00 (0000ms, 16590ms total)
T0E4C 4133:886 JLINK_WriteReg(R5, 0x00000000)  returns 0x00 (0000ms, 16590ms total)
T0E4C 4133:886 JLINK_WriteReg(R6, 0x00000000)  returns 0x00 (0000ms, 16590ms total)
T0E4C 4133:886 JLINK_WriteReg(R7, 0x00000000)  returns 0x00 (0000ms, 16590ms total)
T0E4C 4133:886 JLINK_WriteReg(R8, 0x00000000)  returns 0x00 (0000ms, 16590ms total)
T0E4C 4133:886 JLINK_WriteReg(R9, 0x001004E4)  returns 0x00 (0000ms, 16590ms total)
T0E4C 4133:886 JLINK_WriteReg(R10, 0x00000000)  returns 0x00 (0000ms, 16590ms total)
T0E4C 4133:886 JLINK_WriteReg(R11, 0x00000000)  returns 0x00 (0000ms, 16590ms total)
T0E4C 4133:886 JLINK_WriteReg(R12, 0x00000000)  returns 0x00 (0000ms, 16590ms total)
T0E4C 4133:886 JLINK_WriteReg(R13 (SP), 0x00102F00)  returns 0x00 (0000ms, 16590ms total)
T0E4C 4133:886 JLINK_WriteReg(R14, 0x00100021)  returns 0x00 (0000ms, 16590ms total)
T0E4C 4133:886 JLINK_WriteReg(R15 (PC), 0x001000A4)  returns 0x00 (0000ms, 16590ms total)
T0E4C 4133:886 JLINK_WriteReg(XPSR, 0x01000000)  returns 0x00 (0000ms, 16590ms total)
T0E4C 4133:886 JLINK_WriteReg(MSP, 0x00102F00)  returns 0x00 (0000ms, 16590ms total)
T0E4C 4133:886 JLINK_WriteReg(PSP, 0x00102F00)  returns 0x00 (0000ms, 16590ms total)
T0E4C 4133:886 JLINK_WriteReg(CFBP, 0x00000000)  returns 0x00 (0000ms, 16590ms total)
T0E4C 4133:886 JLINK_SetBPEx(Addr = 0x00100020, Type = 0xFFFFFFF2)  returns 0x0000000B (0000ms, 16590ms total)
T0E4C 4133:886 JLINK_Go() -- CPU_WriteMem(4 bytes @ 0xE0002000) -- CPU_ReadMem(4 bytes @ 0xE0001000) -- CPU_WriteMem(4 bytes @ 0xE0001000) (0010ms, 16600ms total)
T0E4C 4133:896 JLINK_IsHalted()  returns TRUE (0005ms, 16605ms total)
T0E4C 4133:901 JLINK_ReadReg(R15 (PC))  returns 0x00100020 (0000ms, 16600ms total)
T0E4C 4133:901 JLINK_ClrBPEx(BPHandle = 0x0000000B)  returns 0x00 (0000ms, 16600ms total)
T0E4C 4133:901 JLINK_ReadReg(R0)  returns 0x00000000 (0000ms, 16600ms total)
T0E4C 4133:902 JLINK_WriteReg(R0, 0x00205800)  returns 0x00 (0000ms, 16600ms total)
T0E4C 4133:902 JLINK_WriteReg(R1, 0x00000800)  returns 0x00 (0000ms, 16600ms total)
T0E4C 4133:902 JLINK_WriteReg(R2, 0x000000FF)  returns 0x00 (0000ms, 16600ms total)
T0E4C 4133:902 JLINK_WriteReg(R3, 0x00000000)  returns 0x00 (0000ms, 16600ms total)
T0E4C 4133:902 JLINK_WriteReg(R4, 0x00000000)  returns 0x00 (0000ms, 16600ms total)
T0E4C 4133:902 JLINK_WriteReg(R5, 0x00000000)  returns 0x00 (0000ms, 16600ms total)
T0E4C 4133:902 JLINK_WriteReg(R6, 0x00000000)  returns 0x00 (0000ms, 16600ms total)
T0E4C 4133:902 JLINK_WriteReg(R7, 0x00000000)  returns 0x00 (0000ms, 16600ms total)
T0E4C 4133:902 JLINK_WriteReg(R8, 0x00000000)  returns 0x00 (0000ms, 16600ms total)
T0E4C 4133:902 JLINK_WriteReg(R9, 0x001004E4)  returns 0x00 (0000ms, 16600ms total)
T0E4C 4133:902 JLINK_WriteReg(R10, 0x00000000)  returns 0x00 (0000ms, 16600ms total)
T0E4C 4133:902 JLINK_WriteReg(R11, 0x00000000)  returns 0x00 (0000ms, 16600ms total)
T0E4C 4133:902 JLINK_WriteReg(R12, 0x00000000)  returns 0x00 (0000ms, 16600ms total)
T0E4C 4133:902 JLINK_WriteReg(R13 (SP), 0x00102F00)  returns 0x00 (0000ms, 16600ms total)
T0E4C 4133:902 JLINK_WriteReg(R14, 0x00100021)  returns 0x00 (0000ms, 16600ms total)
T0E4C 4133:902 JLINK_WriteReg(R15 (PC), 0x00100040)  returns 0x00 (0000ms, 16600ms total)
T0E4C 4133:902 JLINK_WriteReg(XPSR, 0x01000000)  returns 0x00 (0000ms, 16600ms total)
T0E4C 4133:902 JLINK_WriteReg(MSP, 0x00102F00)  returns 0x00 (0000ms, 16600ms total)
T0E4C 4133:902 JLINK_WriteReg(PSP, 0x00102F00)  returns 0x00 (0000ms, 16600ms total)
T0E4C 4133:902 JLINK_WriteReg(CFBP, 0x00000000)  returns 0x00 (0000ms, 16600ms total)
T0E4C 4133:902 JLINK_SetBPEx(Addr = 0x00100020, Type = 0xFFFFFFF2)  returns 0x0000000C (0000ms, 16600ms total)
T0E4C 4133:902 JLINK_Go() -- CPU_WriteMem(4 bytes @ 0xE0002000) -- CPU_ReadMem(4 bytes @ 0xE0001000) -- CPU_WriteMem(4 bytes @ 0xE0001000) (0010ms, 16610ms total)
T0E4C 4133:912 JLINK_IsHalted()  returns TRUE (0004ms, 16614ms total)
T0E4C 4133:916 JLINK_ReadReg(R15 (PC))  returns 0x00100020 (0000ms, 16610ms total)
T0E4C 4133:916 JLINK_ClrBPEx(BPHandle = 0x0000000C)  returns 0x00 (0000ms, 16610ms total)
T0E4C 4133:916 JLINK_ReadReg(R0)  returns 0x00000001 (0000ms, 16610ms total)
T0E4C 4133:916 JLINK_WriteReg(R0, 0x00205800)  returns 0x00 (0000ms, 16610ms total)
T0E4C 4133:916 JLINK_WriteReg(R1, 0x00000800)  returns 0x00 (0000ms, 16610ms total)
T0E4C 4133:916 JLINK_WriteReg(R2, 0x000000FF)  returns 0x00 (0000ms, 16610ms total)
T0E4C 4133:916 JLINK_WriteReg(R3, 0x00000000)  returns 0x00 (0000ms, 16610ms total)
T0E4C 4133:916 JLINK_WriteReg(R4, 0x00000000)  returns 0x00 (0001ms, 16611ms total)
T0E4C 4133:917 JLINK_WriteReg(R5, 0x00000000)  returns 0x00 (0000ms, 16611ms total)
T0E4C 4133:917 JLINK_WriteReg(R6, 0x00000000)  returns 0x00 (0000ms, 16611ms total)
T0E4C 4133:917 JLINK_WriteReg(R7, 0x00000000)  returns 0x00 (0000ms, 16611ms total)
T0E4C 4133:917 JLINK_WriteReg(R8, 0x00000000)  returns 0x00 (0000ms, 16611ms total)
T0E4C 4133:917 JLINK_WriteReg(R9, 0x001004E4)  returns 0x00 (0000ms, 16611ms total)
T0E4C 4133:917 JLINK_WriteReg(R10, 0x00000000)  returns 0x00 (0000ms, 16611ms total)
T0E4C 4133:917 JLINK_WriteReg(R11, 0x00000000)  returns 0x00 (0000ms, 16611ms total)
T0E4C 4133:917 JLINK_WriteReg(R12, 0x00000000)  returns 0x00 (0000ms, 16611ms total)
T0E4C 4133:917 JLINK_WriteReg(R13 (SP), 0x00102F00)  returns 0x00 (0000ms, 16611ms total)
T0E4C 4133:917 JLINK_WriteReg(R14, 0x00100021)  returns 0x00 (0000ms, 16611ms total)
T0E4C 4133:917 JLINK_WriteReg(R15 (PC), 0x001000A4)  returns 0x00 (0000ms, 16611ms total)
T0E4C 4133:917 JLINK_WriteReg(XPSR, 0x01000000)  returns 0x00 (0000ms, 16611ms total)
T0E4C 4133:917 JLINK_WriteReg(MSP, 0x00102F00)  returns 0x00 (0000ms, 16611ms total)
T0E4C 4133:917 JLINK_WriteReg(PSP, 0x00102F00)  returns 0x00 (0000ms, 16611ms total)
T0E4C 4133:917 JLINK_WriteReg(CFBP, 0x00000000)  returns 0x00 (0000ms, 16611ms total)
T0E4C 4133:917 JLINK_SetBPEx(Addr = 0x00100020, Type = 0xFFFFFFF2)  returns 0x0000000D (0000ms, 16611ms total)
T0E4C 4133:917 JLINK_Go() -- CPU_WriteMem(4 bytes @ 0xE0002000) -- CPU_ReadMem(4 bytes @ 0xE0001000) -- CPU_WriteMem(4 bytes @ 0xE0001000) (0009ms, 16620ms total)
T0E4C 4133:926 JLINK_IsHalted()  returns TRUE (0005ms, 16625ms total)
T0E4C 4133:931 JLINK_ReadReg(R15 (PC))  returns 0x00100020 (0000ms, 16620ms total)
T0E4C 4133:931 JLINK_ClrBPEx(BPHandle = 0x0000000D)  returns 0x00 (0000ms, 16620ms total)
T0E4C 4133:931 JLINK_ReadReg(R0)  returns 0x00000000 (0000ms, 16620ms total)
T0E4C 4133:932 JLINK_WriteReg(R0, 0x00206000)  returns 0x00 (0000ms, 16620ms total)
T0E4C 4133:932 JLINK_WriteReg(R1, 0x00000800)  returns 0x00 (0000ms, 16620ms total)
T0E4C 4133:932 JLINK_WriteReg(R2, 0x000000FF)  returns 0x00 (0000ms, 16620ms total)
T0E4C 4133:932 JLINK_WriteReg(R3, 0x00000000)  returns 0x00 (0000ms, 16620ms total)
T0E4C 4133:932 JLINK_WriteReg(R4, 0x00000000)  returns 0x00 (0000ms, 16620ms total)
T0E4C 4133:932 JLINK_WriteReg(R5, 0x00000000)  returns 0x00 (0000ms, 16620ms total)
T0E4C 4133:932 JLINK_WriteReg(R6, 0x00000000)  returns 0x00 (0000ms, 16620ms total)
T0E4C 4133:932 JLINK_WriteReg(R7, 0x00000000)  returns 0x00 (0000ms, 16620ms total)
T0E4C 4133:932 JLINK_WriteReg(R8, 0x00000000)  returns 0x00 (0000ms, 16620ms total)
T0E4C 4133:932 JLINK_WriteReg(R9, 0x001004E4)  returns 0x00 (0000ms, 16620ms total)
T0E4C 4133:932 JLINK_WriteReg(R10, 0x00000000)  returns 0x00 (0000ms, 16620ms total)
T0E4C 4133:932 JLINK_WriteReg(R11, 0x00000000)  returns 0x00 (0000ms, 16620ms total)
T0E4C 4133:932 JLINK_WriteReg(R12, 0x00000000)  returns 0x00 (0000ms, 16620ms total)
T0E4C 4133:932 JLINK_WriteReg(R13 (SP), 0x00102F00)  returns 0x00 (0000ms, 16620ms total)
T0E4C 4133:932 JLINK_WriteReg(R14, 0x00100021)  returns 0x00 (0000ms, 16620ms total)
T0E4C 4133:932 JLINK_WriteReg(R15 (PC), 0x00100040)  returns 0x00 (0000ms, 16620ms total)
T0E4C 4133:932 JLINK_WriteReg(XPSR, 0x01000000)  returns 0x00 (0000ms, 16620ms total)
T0E4C 4133:932 JLINK_WriteReg(MSP, 0x00102F00)  returns 0x00 (0000ms, 16620ms total)
T0E4C 4133:932 JLINK_WriteReg(PSP, 0x00102F00)  returns 0x00 (0000ms, 16620ms total)
T0E4C 4133:932 JLINK_WriteReg(CFBP, 0x00000000)  returns 0x00 (0000ms, 16620ms total)
T0E4C 4133:932 JLINK_SetBPEx(Addr = 0x00100020, Type = 0xFFFFFFF2)  returns 0x0000000E (0000ms, 16620ms total)
T0E4C 4133:932 JLINK_Go() -- CPU_WriteMem(4 bytes @ 0xE0002000) -- CPU_ReadMem(4 bytes @ 0xE0001000) -- CPU_WriteMem(4 bytes @ 0xE0001000) (0010ms, 16630ms total)
T0E4C 4133:942 JLINK_IsHalted()  returns TRUE (0005ms, 16635ms total)
T0E4C 4133:947 JLINK_ReadReg(R15 (PC))  returns 0x00100020 (0000ms, 16630ms total)
T0E4C 4133:947 JLINK_ClrBPEx(BPHandle = 0x0000000E)  returns 0x00 (0000ms, 16630ms total)
T0E4C 4133:947 JLINK_ReadReg(R0)  returns 0x00000001 (0000ms, 16630ms total)
T0E4C 4133:947 JLINK_WriteReg(R0, 0x00206000)  returns 0x00 (0000ms, 16630ms total)
T0E4C 4133:947 JLINK_WriteReg(R1, 0x00000800)  returns 0x00 (0000ms, 16630ms total)
T0E4C 4133:947 JLINK_WriteReg(R2, 0x000000FF)  returns 0x00 (0000ms, 16630ms total)
T0E4C 4133:947 JLINK_WriteReg(R3, 0x00000000)  returns 0x00 (0000ms, 16630ms total)
T0E4C 4133:947 JLINK_WriteReg(R4, 0x00000000)  returns 0x00 (0000ms, 16630ms total)
T0E4C 4133:947 JLINK_WriteReg(R5, 0x00000000)  returns 0x00 (0000ms, 16630ms total)
T0E4C 4133:947 JLINK_WriteReg(R6, 0x00000000)  returns 0x00 (0000ms, 16630ms total)
T0E4C 4133:947 JLINK_WriteReg(R7, 0x00000000)  returns 0x00 (0000ms, 16630ms total)
T0E4C 4133:947 JLINK_WriteReg(R8, 0x00000000)  returns 0x00 (0000ms, 16630ms total)
T0E4C 4133:947 JLINK_WriteReg(R9, 0x001004E4)  returns 0x00 (0000ms, 16630ms total)
T0E4C 4133:947 JLINK_WriteReg(R10, 0x00000000)  returns 0x00 (0000ms, 16630ms total)
T0E4C 4133:947 JLINK_WriteReg(R11, 0x00000000)  returns 0x00 (0000ms, 16630ms total)
T0E4C 4133:947 JLINK_WriteReg(R12, 0x00000000)  returns 0x00 (0000ms, 16630ms total)
T0E4C 4133:947 JLINK_WriteReg(R13 (SP), 0x00102F00)  returns 0x00 (0000ms, 16630ms total)
T0E4C 4133:947 JLINK_WriteReg(R14, 0x00100021)  returns 0x00 (0000ms, 16630ms total)
T0E4C 4133:947 JLINK_WriteReg(R15 (PC), 0x001000A4)  returns 0x00 (0000ms, 16630ms total)
T0E4C 4133:947 JLINK_WriteReg(XPSR, 0x01000000)  returns 0x00 (0000ms, 16630ms total)
T0E4C 4133:947 JLINK_WriteReg(MSP, 0x00102F00)  returns 0x00 (0000ms, 16630ms total)
T0E4C 4133:947 JLINK_WriteReg(PSP, 0x00102F00)  returns 0x00 (0000ms, 16630ms total)
T0E4C 4133:947 JLINK_WriteReg(CFBP, 0x00000000)  returns 0x00 (0000ms, 16630ms total)
T0E4C 4133:947 JLINK_SetBPEx(Addr = 0x00100020, Type = 0xFFFFFFF2)  returns 0x0000000F (0000ms, 16630ms total)
T0E4C 4133:947 JLINK_Go() -- CPU_WriteMem(4 bytes @ 0xE0002000) -- CPU_ReadMem(4 bytes @ 0xE0001000) -- CPU_WriteMem(4 bytes @ 0xE0001000) (0010ms, 16640ms total)
T0E4C 4133:957 JLINK_IsHalted()  returns TRUE (0005ms, 16645ms total)
T0E4C 4133:962 JLINK_ReadReg(R15 (PC))  returns 0x00100020 (0000ms, 16640ms total)
T0E4C 4133:962 JLINK_ClrBPEx(BPHandle = 0x0000000F)  returns 0x00 (0000ms, 16640ms total)
T0E4C 4133:962 JLINK_ReadReg(R0)  returns 0x00000000 (0000ms, 16640ms total)
T0E4C 4133:963 JLINK_WriteReg(R0, 0x00206800)  returns 0x00 (0000ms, 16640ms total)
T0E4C 4133:963 JLINK_WriteReg(R1, 0x00000800)  returns 0x00 (0000ms, 16640ms total)
T0E4C 4133:963 JLINK_WriteReg(R2, 0x000000FF)  returns 0x00 (0000ms, 16640ms total)
T0E4C 4133:963 JLINK_WriteReg(R3, 0x00000000)  returns 0x00 (0000ms, 16640ms total)
T0E4C 4133:963 JLINK_WriteReg(R4, 0x00000000)  returns 0x00 (0000ms, 16640ms total)
T0E4C 4133:963 JLINK_WriteReg(R5, 0x00000000)  returns 0x00 (0000ms, 16640ms total)
T0E4C 4133:963 JLINK_WriteReg(R6, 0x00000000)  returns 0x00 (0000ms, 16640ms total)
T0E4C 4133:963 JLINK_WriteReg(R7, 0x00000000)  returns 0x00 (0000ms, 16640ms total)
T0E4C 4133:963 JLINK_WriteReg(R8, 0x00000000)  returns 0x00 (0000ms, 16640ms total)
T0E4C 4133:963 JLINK_WriteReg(R9, 0x001004E4)  returns 0x00 (0000ms, 16640ms total)
T0E4C 4133:963 JLINK_WriteReg(R10, 0x00000000)  returns 0x00 (0000ms, 16640ms total)
T0E4C 4133:963 JLINK_WriteReg(R11, 0x00000000)  returns 0x00 (0000ms, 16640ms total)
T0E4C 4133:963 JLINK_WriteReg(R12, 0x00000000)  returns 0x00 (0000ms, 16640ms total)
T0E4C 4133:963 JLINK_WriteReg(R13 (SP), 0x00102F00)  returns 0x00 (0000ms, 16640ms total)
T0E4C 4133:963 JLINK_WriteReg(R14, 0x00100021)  returns 0x00 (0000ms, 16640ms total)
T0E4C 4133:963 JLINK_WriteReg(R15 (PC), 0x00100040)  returns 0x00 (0000ms, 16640ms total)
T0E4C 4133:963 JLINK_WriteReg(XPSR, 0x01000000)  returns 0x00 (0000ms, 16640ms total)
T0E4C 4133:963 JLINK_WriteReg(MSP, 0x00102F00)  returns 0x00 (0000ms, 16640ms total)
T0E4C 4133:963 JLINK_WriteReg(PSP, 0x00102F00)  returns 0x00 (0000ms, 16640ms total)
T0E4C 4133:963 JLINK_WriteReg(CFBP, 0x00000000)  returns 0x00 (0000ms, 16640ms total)
T0E4C 4133:963 JLINK_SetBPEx(Addr = 0x00100020, Type = 0xFFFFFFF2)  returns 0x00000010 (0000ms, 16640ms total)
T0E4C 4133:963 JLINK_Go() -- CPU_WriteMem(4 bytes @ 0xE0002000) -- CPU_ReadMem(4 bytes @ 0xE0001000) -- CPU_WriteMem(4 bytes @ 0xE0001000) (0011ms, 16651ms total)
T0E4C 4133:974 JLINK_IsHalted()  returns TRUE (0005ms, 16656ms total)
T0E4C 4133:979 JLINK_ReadReg(R15 (PC))  returns 0x00100020 (0000ms, 16651ms total)
T0E4C 4133:979 JLINK_ClrBPEx(BPHandle = 0x00000010)  returns 0x00 (0000ms, 16651ms total)
T0E4C 4133:979 JLINK_ReadReg(R0)  returns 0x00000001 (0000ms, 16651ms total)
T0E4C 4133:979 JLINK_WriteReg(R0, 0x00206800)  returns 0x00 (0000ms, 16651ms total)
T0E4C 4133:979 JLINK_WriteReg(R1, 0x00000800)  returns 0x00 (0000ms, 16651ms total)
T0E4C 4133:979 JLINK_WriteReg(R2, 0x000000FF)  returns 0x00 (0000ms, 16651ms total)
T0E4C 4133:979 JLINK_WriteReg(R3, 0x00000000)  returns 0x00 (0000ms, 16651ms total)
T0E4C 4133:979 JLINK_WriteReg(R4, 0x00000000)  returns 0x00 (0000ms, 16651ms total)
T0E4C 4133:979 JLINK_WriteReg(R5, 0x00000000)  returns 0x00 (0000ms, 16651ms total)
T0E4C 4133:979 JLINK_WriteReg(R6, 0x00000000)  returns 0x00 (0000ms, 16651ms total)
T0E4C 4133:979 JLINK_WriteReg(R7, 0x00000000)  returns 0x00 (0000ms, 16651ms total)
T0E4C 4133:979 JLINK_WriteReg(R8, 0x00000000)  returns 0x00 (0000ms, 16651ms total)
T0E4C 4133:979 JLINK_WriteReg(R9, 0x001004E4)  returns 0x00 (0000ms, 16651ms total)
T0E4C 4133:979 JLINK_WriteReg(R10, 0x00000000)  returns 0x00 (0000ms, 16651ms total)
T0E4C 4133:979 JLINK_WriteReg(R11, 0x00000000)  returns 0x00 (0000ms, 16651ms total)
T0E4C 4133:979 JLINK_WriteReg(R12, 0x00000000)  returns 0x00 (0000ms, 16651ms total)
T0E4C 4133:979 JLINK_WriteReg(R13 (SP), 0x00102F00)  returns 0x00 (0000ms, 16651ms total)
T0E4C 4133:979 JLINK_WriteReg(R14, 0x00100021)  returns 0x00 (0000ms, 16651ms total)
T0E4C 4133:979 JLINK_WriteReg(R15 (PC), 0x001000A4)  returns 0x00 (0000ms, 16651ms total)
T0E4C 4133:979 JLINK_WriteReg(XPSR, 0x01000000)  returns 0x00 (0000ms, 16651ms total)
T0E4C 4133:979 JLINK_WriteReg(MSP, 0x00102F00)  returns 0x00 (0000ms, 16651ms total)
T0E4C 4133:979 JLINK_WriteReg(PSP, 0x00102F00)  returns 0x00 (0000ms, 16651ms total)
T0E4C 4133:979 JLINK_WriteReg(CFBP, 0x00000000)  returns 0x00 (0000ms, 16651ms total)
T0E4C 4133:979 JLINK_SetBPEx(Addr = 0x00100020, Type = 0xFFFFFFF2)  returns 0x00000011 (0000ms, 16651ms total)
T0E4C 4133:979 JLINK_Go() -- CPU_WriteMem(4 bytes @ 0xE0002000) -- CPU_ReadMem(4 bytes @ 0xE0001000) -- CPU_WriteMem(4 bytes @ 0xE0001000) (0011ms, 16662ms total)
T0E4C 4133:990 JLINK_IsHalted()  returns TRUE (0005ms, 16667ms total)
T0E4C 4133:995 JLINK_ReadReg(R15 (PC))  returns 0x00100020 (0000ms, 16662ms total)
T0E4C 4133:995 JLINK_ClrBPEx(BPHandle = 0x00000011)  returns 0x00 (0000ms, 16662ms total)
T0E4C 4133:995 JLINK_ReadReg(R0)  returns 0x00000000 (0000ms, 16662ms total)
T0E4C 4133:995 JLINK_WriteReg(R0, 0x00207000)  returns 0x00 (0000ms, 16662ms total)
T0E4C 4133:995 JLINK_WriteReg(R1, 0x00000800)  returns 0x00 (0000ms, 16662ms total)
T0E4C 4133:995 JLINK_WriteReg(R2, 0x000000FF)  returns 0x00 (0000ms, 16662ms total)
T0E4C 4133:995 JLINK_WriteReg(R3, 0x00000000)  returns 0x00 (0001ms, 16663ms total)
T0E4C 4133:996 JLINK_WriteReg(R4, 0x00000000)  returns 0x00 (0000ms, 16663ms total)
T0E4C 4133:996 JLINK_WriteReg(R5, 0x00000000)  returns 0x00 (0000ms, 16663ms total)
T0E4C 4133:996 JLINK_WriteReg(R6, 0x00000000)  returns 0x00 (0000ms, 16663ms total)
T0E4C 4133:996 JLINK_WriteReg(R7, 0x00000000)  returns 0x00 (0000ms, 16663ms total)
T0E4C 4133:996 JLINK_WriteReg(R8, 0x00000000)  returns 0x00 (0000ms, 16663ms total)
T0E4C 4133:996 JLINK_WriteReg(R9, 0x001004E4)  returns 0x00 (0000ms, 16663ms total)
T0E4C 4133:996 JLINK_WriteReg(R10, 0x00000000)  returns 0x00 (0000ms, 16663ms total)
T0E4C 4133:996 JLINK_WriteReg(R11, 0x00000000)  returns 0x00 (0000ms, 16663ms total)
T0E4C 4133:996 JLINK_WriteReg(R12, 0x00000000)  returns 0x00 (0000ms, 16663ms total)
T0E4C 4133:996 JLINK_WriteReg(R13 (SP), 0x00102F00)  returns 0x00 (0000ms, 16663ms total)
T0E4C 4133:996 JLINK_WriteReg(R14, 0x00100021)  returns 0x00 (0000ms, 16663ms total)
T0E4C 4133:996 JLINK_WriteReg(R15 (PC), 0x00100040)  returns 0x00 (0000ms, 16663ms total)
T0E4C 4133:996 JLINK_WriteReg(XPSR, 0x01000000)  returns 0x00 (0000ms, 16663ms total)
T0E4C 4133:996 JLINK_WriteReg(MSP, 0x00102F00)  returns 0x00 (0000ms, 16663ms total)
T0E4C 4133:996 JLINK_WriteReg(PSP, 0x00102F00)  returns 0x00 (0000ms, 16663ms total)
T0E4C 4133:996 JLINK_WriteReg(CFBP, 0x00000000)  returns 0x00 (0000ms, 16663ms total)
T0E4C 4133:996 JLINK_SetBPEx(Addr = 0x00100020, Type = 0xFFFFFFF2)  returns 0x00000012 (0000ms, 16663ms total)
T0E4C 4133:996 JLINK_Go() -- CPU_WriteMem(4 bytes @ 0xE0002000) -- CPU_ReadMem(4 bytes @ 0xE0001000) -- CPU_WriteMem(4 bytes @ 0xE0001000) (0010ms, 16673ms total)
T0E4C 4134:006 JLINK_IsHalted()  returns TRUE (0004ms, 16677ms total)
T0E4C 4134:010 JLINK_ReadReg(R15 (PC))  returns 0x00100020 (0000ms, 16673ms total)
T0E4C 4134:010 JLINK_ClrBPEx(BPHandle = 0x00000012)  returns 0x00 (0000ms, 16673ms total)
T0E4C 4134:010 JLINK_ReadReg(R0)  returns 0x00000001 (0000ms, 16673ms total)
T0E4C 4134:010 JLINK_WriteReg(R0, 0x00207000)  returns 0x00 (0000ms, 16673ms total)
